! NanoVNA-App
! Date: 2024-11-06 19:35:17
! Start: 100MHz Stop: 1.5GHz Points: 101
! S-Parameter data: F S11 S21 S12 S22
# Hz S RI R 50
!     Frequency           S11_Real           S11_Imag           S21_Real           S21_Imag           S12_Real           S12_Imag           S22_Real           S22_Imag
      100000000   -1.326012239e-02   -3.019475006e-02    7.804595828e-01   -1.291524023e-01    0.000000000e+00    0.000000000e+00    0.000000000e+00    0.000000000e+00
      114000000   -2.222692594e-02   -2.550891042e-02    6.437019706e-01   -4.574216604e-01    0.000000000e+00    0.000000000e+00    0.000000000e+00    0.000000000e+00
      128000000   -2.270775661e-02   -1.665183529e-02    3.750217259e-01   -6.860910654e-01    0.000000000e+00    0.000000000e+00    0.000000000e+00    0.000000000e+00
      142000000   -1.435787138e-02   -1.232506521e-02    3.574515134e-02   -7.774416208e-01    0.000000000e+00    0.000000000e+00    0.000000000e+00    0.000000000e+00
      156000000   -5.177190527e-03   -1.884661242e-02   -3.027643561e-01   -7.054214478e-01    0.000000000e+00    0.000000000e+00    0.000000000e+00    0.000000000e+00
      170000000   -3.440359840e-03   -3.424538299e-02   -5.839290023e-01   -5.046116114e-01    0.000000000e+00    0.000000000e+00    0.000000000e+00    0.000000000e+00
      184000000   -1.454963163e-02   -4.778701439e-02   -7.449000478e-01   -1.998808831e-01    0.000000000e+00    0.000000000e+00    0.000000000e+00    0.000000000e+00
      198000000   -3.243615106e-02   -5.054504052e-02   -7.588711977e-01    1.446766555e-01    0.000000000e+00    0.000000000e+00    0.000000000e+00    0.000000000e+00
      212000000   -4.730748385e-02   -4.143670574e-02   -6.198118925e-01    4.626069963e-01    0.000000000e+00    0.000000000e+00    0.000000000e+00    0.000000000e+00
      226000000   -5.171822384e-02   -2.733546495e-02   -3.546085954e-01    6.871762276e-01    0.000000000e+00    0.000000000e+00    0.000000000e+00    0.000000000e+00
      240000000   -4.697732255e-02   -1.737015136e-02   -1.905086823e-02    7.720208168e-01    0.000000000e+00    0.000000000e+00    0.000000000e+00    0.000000000e+00
      254000000   -3.971012309e-02   -1.542620175e-02    3.164853156e-01    7.014913559e-01    0.000000000e+00    0.000000000e+00    0.000000000e+00    0.000000000e+00
      268000000   -3.662701324e-02   -1.877533644e-02    5.877962112e-01    4.938950539e-01    0.000000000e+00    0.000000000e+00    0.000000000e+00    0.000000000e+00
      282000000   -3.818830475e-02   -2.152132243e-02    7.433335185e-01    1.893117279e-01    0.000000000e+00    0.000000000e+00    0.000000000e+00    0.000000000e+00
      296000000   -4.220532626e-02   -2.062607370e-02    7.391797900e-01   -2.096989751e-01    0.000000000e+00    0.000000000e+00    0.000000000e+00    0.000000000e+00
      310000000   -4.182290286e-02   -1.944171824e-02    5.725021362e-01   -5.142457485e-01    0.000000000e+00    0.000000000e+00    0.000000000e+00    0.000000000e+00
      324000000   -4.185955599e-02   -1.953809708e-02    2.916419208e-01   -7.152335644e-01    0.000000000e+00    0.000000000e+00    0.000000000e+00    0.000000000e+00
      338000000   -4.436575249e-02   -2.068562433e-02   -4.870334268e-02   -7.749539018e-01    0.000000000e+00    0.000000000e+00    0.000000000e+00    0.000000000e+00
      352000000   -5.022478104e-02   -1.872444525e-02   -3.824248910e-01   -6.714870334e-01    0.000000000e+00    0.000000000e+00    0.000000000e+00    0.000000000e+00
      366000000   -5.492371321e-02   -9.838231839e-03   -6.385406852e-01   -4.348065853e-01    0.000000000e+00    0.000000000e+00    0.000000000e+00    0.000000000e+00
      380000000   -5.070295930e-02    3.932256252e-03   -7.615286708e-01   -1.078324765e-01    0.000000000e+00    0.000000000e+00    0.000000000e+00    0.000000000e+00
      394000000   -3.437913582e-02    1.367778797e-02   -7.248594165e-01    2.372306585e-01    0.000000000e+00    0.000000000e+00    0.000000000e+00    0.000000000e+00
      408000000   -1.142895687e-02    8.223167621e-03   -5.354703665e-01    5.260261297e-01    0.000000000e+00    0.000000000e+00    0.000000000e+00    0.000000000e+00
      422000000    4.540926777e-03   -1.400210522e-02   -2.479796708e-01    6.992393136e-01    0.000000000e+00    0.000000000e+00    0.000000000e+00    0.000000000e+00
      436000000    3.180794010e-04   -4.407452047e-02    8.164379746e-02    7.320455909e-01    0.000000000e+00    0.000000000e+00    0.000000000e+00    0.000000000e+00
      450000000   -2.385616302e-02   -6.307078153e-02    3.910085261e-01    6.251319647e-01    0.000000000e+00    0.000000000e+00    0.000000000e+00    0.000000000e+00
      464000000   -5.465448275e-02   -5.899823457e-02    6.268947124e-01    3.930890262e-01    0.000000000e+00    0.000000000e+00    0.000000000e+00    0.000000000e+00
      478000000   -7.041843235e-02   -3.281183168e-02    7.351741791e-01    7.908218354e-02    0.000000000e+00    0.000000000e+00    0.000000000e+00    0.000000000e+00
      492000000   -5.747791380e-02   -3.783848137e-03    6.890432835e-01   -2.500602901e-01    0.000000000e+00    0.000000000e+00    0.000000000e+00    0.000000000e+00
      506000000   -2.305717953e-02    2.920635510e-03    5.044799447e-01   -5.172144771e-01    0.000000000e+00    0.000000000e+00    0.000000000e+00    0.000000000e+00
      520000000    8.533373475e-03   -2.165532298e-02    2.362470180e-01   -6.693581343e-01    0.000000000e+00    0.000000000e+00    0.000000000e+00    0.000000000e+00
      534000000    1.482828427e-02   -6.658859551e-02   -7.098229229e-02   -6.992999911e-01    0.000000000e+00    0.000000000e+00    0.000000000e+00    0.000000000e+00
      548000000   -1.176496129e-02   -1.081641540e-01   -3.559413254e-01   -6.057469249e-01    0.000000000e+00    0.000000000e+00    0.000000000e+00    0.000000000e+00
      562000000   -6.023713201e-02   -1.235280409e-01   -5.799818039e-01   -4.012134075e-01    0.000000000e+00    0.000000000e+00    0.000000000e+00    0.000000000e+00
      576000000   -1.065180376e-01   -1.050616130e-01   -7.001802325e-01   -1.132150292e-01    0.000000000e+00    0.000000000e+00    0.000000000e+00    0.000000000e+00
      590000000   -1.257426590e-01   -6.352974474e-02   -6.875034571e-01    2.109457403e-01    0.000000000e+00    0.000000000e+00    0.000000000e+00    0.000000000e+00
      604000000   -1.104280651e-01   -2.573255263e-02   -5.202714205e-01    4.912332594e-01    0.000000000e+00    0.000000000e+00    0.000000000e+00    0.000000000e+00
      618000000   -7.714299858e-02   -1.657970995e-02   -2.491759956e-01    6.602447033e-01    0.000000000e+00    0.000000000e+00    0.000000000e+00    0.000000000e+00
      632000000   -5.435733125e-02   -3.749529645e-02    6.305776536e-02    6.957050562e-01    0.000000000e+00    0.000000000e+00    0.000000000e+00    0.000000000e+00
      646000000   -5.873930082e-02   -6.888634712e-02    3.531656563e-01    5.965468884e-01    0.000000000e+00    0.000000000e+00    0.000000000e+00    0.000000000e+00
      660000000   -8.767081797e-02   -8.762228489e-02    5.759109259e-01    3.874160051e-01    0.000000000e+00    0.000000000e+00    0.000000000e+00    0.000000000e+00
      674000000   -1.232021749e-01   -8.024939895e-02    6.911401749e-01    9.875813872e-02    0.000000000e+00    0.000000000e+00    0.000000000e+00    0.000000000e+00
      688000000   -1.436296254e-01   -5.090041459e-02    6.686117649e-01   -2.174872607e-01    0.000000000e+00    0.000000000e+00    0.000000000e+00    0.000000000e+00
      702000000   -1.398926526e-01   -1.909423061e-02    5.091312528e-01   -4.983441234e-01    0.000000000e+00    0.000000000e+00    0.000000000e+00    0.000000000e+00
      716000000   -1.186751425e-01   -3.367363010e-03    2.342347652e-01   -6.631451249e-01    0.000000000e+00    0.000000000e+00    0.000000000e+00    0.000000000e+00
      730000000   -1.014644727e-01   -7.228615228e-03   -7.971079648e-02   -6.989271045e-01    0.000000000e+00    0.000000000e+00    0.000000000e+00    0.000000000e+00
      744000000   -9.904223680e-02   -1.783032715e-02   -3.768499196e-01   -5.970335007e-01    0.000000000e+00    0.000000000e+00    0.000000000e+00    0.000000000e+00
      758000000   -1.085429043e-01   -2.031278238e-02   -6.072574854e-01   -3.771131933e-01    0.000000000e+00    0.000000000e+00    0.000000000e+00    0.000000000e+00
      772000000   -1.156919748e-01   -8.392456919e-03   -7.199708819e-01   -7.691698521e-02    0.000000000e+00    0.000000000e+00    0.000000000e+00    0.000000000e+00
      786000000   -1.082438454e-01    9.291447699e-03   -6.888374090e-01    2.451955229e-01    0.000000000e+00    0.000000000e+00    0.000000000e+00    0.000000000e+00
      800000000   -8.542867750e-02    1.595683023e-02   -5.185342431e-01    5.188021660e-01    0.000000000e+00    0.000000000e+00    0.000000000e+00    0.000000000e+00
      814000000   -6.344884634e-02    1.970273210e-03   -2.515612841e-01    6.916175485e-01    0.000000000e+00    0.000000000e+00    0.000000000e+00    0.000000000e+00
      828000000   -5.917857960e-02   -2.537662722e-02    6.026055291e-02    7.346917391e-01    0.000000000e+00    0.000000000e+00    0.000000000e+00    0.000000000e+00
      842000000   -7.785694301e-02   -4.691675678e-02    3.686320782e-01    6.497864127e-01    0.000000000e+00    0.000000000e+00    0.000000000e+00    0.000000000e+00
      856000000   -1.070959941e-01   -4.617042094e-02    6.166462302e-01    4.397566319e-01    0.000000000e+00    0.000000000e+00    0.000000000e+00    0.000000000e+00
      870000000   -1.238390952e-01   -1.910667680e-02    7.509629726e-01    1.316454709e-01    0.000000000e+00    0.000000000e+00    0.000000000e+00    0.000000000e+00
      884000000   -1.216567755e-01    1.813409291e-02    6.539118290e-01   -2.437420338e-01    0.000000000e+00    0.000000000e+00    0.000000000e+00    0.000000000e+00
      898000000   -7.874018699e-02    2.829133719e-02    4.685109556e-01   -4.991725683e-01    0.000000000e+00    0.000000000e+00    0.000000000e+00    0.000000000e+00
      912000000   -3.830521181e-02   -2.827988239e-03    2.044653594e-01   -6.327090263e-01    0.000000000e+00    0.000000000e+00    0.000000000e+00    0.000000000e+00
      926000000   -2.853487246e-02   -5.873088539e-02   -7.741411775e-02   -6.499348879e-01    0.000000000e+00    0.000000000e+00    0.000000000e+00    0.000000000e+00
      940000000   -5.826144293e-02   -1.125902012e-01   -3.395725787e-01   -5.571310520e-01    0.000000000e+00    0.000000000e+00    0.000000000e+00    0.000000000e+00
      954000000   -1.176655442e-01   -1.357256919e-01   -5.515026450e-01   -3.665117919e-01    0.000000000e+00    0.000000000e+00    0.000000000e+00    0.000000000e+00
      968000000   -1.797133386e-01   -1.158831716e-01   -6.757222414e-01   -8.996178955e-02    0.000000000e+00    0.000000000e+00    0.000000000e+00    0.000000000e+00
      982000000   -2.088129371e-01   -5.823786184e-02   -6.624054909e-01    2.338394523e-01    0.000000000e+00    0.000000000e+00    0.000000000e+00    0.000000000e+00
      996000000   -1.850562692e-01   -3.585376078e-03   -4.902484417e-01    5.224179029e-01    0.000000000e+00    0.000000000e+00    0.000000000e+00    0.000000000e+00
     1010000000   -1.316191405e-01    7.970575243e-03   -2.060435563e-01    6.888340712e-01    0.000000000e+00    0.000000000e+00    0.000000000e+00    0.000000000e+00
     1024000000   -9.093390405e-02   -2.913384885e-02    1.045287699e-01    7.105717659e-01    0.000000000e+00    0.000000000e+00    0.000000000e+00    0.000000000e+00
     1038000000   -9.219609201e-02   -8.728544414e-02    3.833034039e-01    6.056256294e-01    0.000000000e+00    0.000000000e+00    0.000000000e+00    0.000000000e+00
     1052000000   -1.391481459e-01   -1.301374286e-01    6.027066708e-01    4.061203301e-01    0.000000000e+00    0.000000000e+00    0.000000000e+00    0.000000000e+00
     1066000000   -2.081499547e-01   -1.340527236e-01    7.355890870e-01    1.347876042e-01    0.000000000e+00    0.000000000e+00    0.000000000e+00    0.000000000e+00
     1080000000   -2.662587464e-01   -9.001227468e-02    7.421755195e-01   -1.888158768e-01    0.000000000e+00    0.000000000e+00    0.000000000e+00    0.000000000e+00
     1094000000   -2.812887132e-01   -1.868347265e-02    5.983484387e-01   -4.901512861e-01    0.000000000e+00    0.000000000e+00    0.000000000e+00    0.000000000e+00
     1108000000   -2.448547930e-01    3.578226268e-02    3.300660253e-01   -6.881818175e-01    0.000000000e+00    0.000000000e+00    0.000000000e+00    0.000000000e+00
     1122000000   -1.910535842e-01    4.645835981e-02   -5.171598401e-03   -7.358534336e-01    0.000000000e+00    0.000000000e+00    0.000000000e+00    0.000000000e+00
     1136000000   -1.583626717e-01    1.734179258e-02   -3.136100471e-01   -6.345812082e-01    0.000000000e+00    0.000000000e+00    0.000000000e+00    0.000000000e+00
     1150000000   -1.654613912e-01   -1.591158658e-02   -5.507723093e-01   -4.184964895e-01    0.000000000e+00    0.000000000e+00    0.000000000e+00    0.000000000e+00
     1164000000   -1.978858113e-01   -2.892941236e-02   -6.773455739e-01   -1.181060374e-01    0.000000000e+00    0.000000000e+00    0.000000000e+00    0.000000000e+00
     1178000000   -2.296411991e-01   -6.160357967e-03   -6.614168882e-01    2.186243236e-01    0.000000000e+00    0.000000000e+00    0.000000000e+00    0.000000000e+00
     1192000000   -2.324111462e-01    3.311759979e-02   -4.903019667e-01    5.154989958e-01    0.000000000e+00    0.000000000e+00    0.000000000e+00    0.000000000e+00
     1206000000   -2.077573687e-01    6.294833869e-02   -1.976264417e-01    7.018453479e-01    0.000000000e+00    0.000000000e+00    0.000000000e+00    0.000000000e+00
     1220000000   -1.720033437e-01    6.330540776e-02    1.401384920e-01    7.356553674e-01    0.000000000e+00    0.000000000e+00    0.000000000e+00    0.000000000e+00
     1234000000   -1.515021324e-01    4.249388352e-02    4.532386959e-01    6.231620312e-01    0.000000000e+00    0.000000000e+00    0.000000000e+00    0.000000000e+00
     1248000000   -1.585788131e-01    2.335654013e-02    6.929070354e-01    3.804016411e-01    0.000000000e+00    0.000000000e+00    0.000000000e+00    0.000000000e+00
     1262000000   -1.741913557e-01    1.949579641e-02    7.995420098e-01    5.843983963e-02    0.000000000e+00    0.000000000e+00    0.000000000e+00    0.000000000e+00
     1276000000   -1.830373108e-01    3.977833316e-02    7.513236403e-01   -2.927470207e-01    0.000000000e+00    0.000000000e+00    0.000000000e+00    0.000000000e+00
     1290000000   -1.687324941e-01    6.504879892e-02    5.398041010e-01   -5.856052637e-01    0.000000000e+00    0.000000000e+00    0.000000000e+00    0.000000000e+00
     1304000000   -1.374956816e-01    6.772328168e-02    2.188541144e-01   -7.408833504e-01    0.000000000e+00    0.000000000e+00    0.000000000e+00    0.000000000e+00
     1318000000   -1.082465127e-01    4.570954666e-02   -1.290154755e-01   -7.363787889e-01    0.000000000e+00    0.000000000e+00    0.000000000e+00    0.000000000e+00
     1332000000   -1.074810326e-01    9.587323293e-03   -4.451807141e-01   -5.946855545e-01    0.000000000e+00    0.000000000e+00    0.000000000e+00    0.000000000e+00
     1346000000   -1.344585270e-01   -1.672914624e-02   -6.839310527e-01   -3.221157789e-01    0.000000000e+00    0.000000000e+00    0.000000000e+00    0.000000000e+00
     1360000000   -1.756412238e-01   -1.403401978e-02   -8.003107309e-01    5.685196072e-02    0.000000000e+00    0.000000000e+00    0.000000000e+00    0.000000000e+00
     1374000000   -1.975681931e-01    2.318906970e-02   -7.353975177e-01    4.668256938e-01    0.000000000e+00    0.000000000e+00    0.000000000e+00    0.000000000e+00
     1388000000   -1.816933602e-01    6.725149602e-02   -4.627663791e-01    8.060301542e-01    0.000000000e+00    0.000000000e+00    0.000000000e+00    0.000000000e+00
     1402000000   -1.366748214e-01    8.210037649e-02   -7.271043956e-02    9.704024196e-01    0.000000000e+00    0.000000000e+00    0.000000000e+00    0.000000000e+00
     1416000000   -9.549479932e-02    5.396540090e-02    3.239714801e-01    9.586384892e-01    0.000000000e+00    0.000000000e+00    0.000000000e+00    0.000000000e+00
     1430000000   -9.087592363e-02    2.097725635e-03    6.482541561e-01    8.038188219e-01    0.000000000e+00    0.000000000e+00    0.000000000e+00    0.000000000e+00
     1444000000   -1.284316629e-01   -3.908523917e-02    9.041213989e-01    5.407159925e-01    0.000000000e+00    0.000000000e+00    0.000000000e+00    0.000000000e+00
     1458000000   -1.718735397e-01   -6.199451163e-02    7.527060509e-01    1.108099893e-01    0.000000000e+00    0.000000000e+00    0.000000000e+00    0.000000000e+00
     1472000000   -2.923302948e-01   -5.336872861e-02    7.434250116e-01   -2.277130783e-01    0.000000000e+00    0.000000000e+00    0.000000000e+00    0.000000000e+00
     1486000000   -3.071825504e-01    2.460167557e-02    5.340697169e-01   -5.547066927e-01    0.000000000e+00    0.000000000e+00    0.000000000e+00    0.000000000e+00
     1500000000   -2.674954534e-01    9.720294923e-02    2.028684318e-01   -7.281402946e-01    0.000000000e+00    0.000000000e+00    0.000000000e+00    0.000000000e+00
