! NanoVNA-App
! Date: 2024-11-06 19:37:12
! Start: 100MHz Stop: 1.5GHz Points: 101
! S-Parameter data: F S11 S21 S12 S22
# Hz S RI R 50
!     Frequency           S11_Real           S11_Imag           S21_Real           S21_Imag           S12_Real           S12_Imag           S22_Real           S22_Imag
      100000000   -1.344837248e-02   -1.987064444e-02    7.607561946e-01   -2.050091773e-01    0.000000000e+00    0.000000000e+00    0.000000000e+00    0.000000000e+00
      114000000   -1.519732829e-02   -1.510778908e-02    5.852171779e-01   -5.237210989e-01    0.000000000e+00    0.000000000e+00    0.000000000e+00    0.000000000e+00
      128000000   -8.711803705e-03   -1.188098732e-02    2.847609818e-01   -7.219561934e-01    0.000000000e+00    0.000000000e+00    0.000000000e+00    0.000000000e+00
      142000000    1.641229028e-03   -1.814317703e-02   -6.955667585e-02   -7.686775327e-01    0.000000000e+00    0.000000000e+00    0.000000000e+00    0.000000000e+00
      156000000    5.581695121e-03   -3.514513746e-02   -4.019187093e-01   -6.570693254e-01    0.000000000e+00    0.000000000e+00    0.000000000e+00    0.000000000e+00
      170000000   -4.753746558e-03   -5.484085903e-02   -6.520811915e-01   -4.027771950e-01    0.000000000e+00    0.000000000e+00    0.000000000e+00    0.000000000e+00
      184000000   -2.789211273e-02   -6.444805115e-02   -7.644060254e-01   -6.865797937e-02    0.000000000e+00    0.000000000e+00    0.000000000e+00    0.000000000e+00
      198000000   -5.259303749e-02   -5.687441677e-02   -7.158492208e-01    2.822374105e-01    0.000000000e+00    0.000000000e+00    0.000000000e+00    0.000000000e+00
      212000000   -6.612779945e-02   -3.683818132e-02   -5.118845701e-01    5.752162337e-01    0.000000000e+00    0.000000000e+00    0.000000000e+00    0.000000000e+00
      226000000   -6.420179456e-02   -1.628956757e-02   -1.980933547e-01    7.433256507e-01    0.000000000e+00    0.000000000e+00    0.000000000e+00    0.000000000e+00
      240000000   -5.300438404e-02   -5.076420959e-03    1.553362757e-01    7.507043481e-01    0.000000000e+00    0.000000000e+00    0.000000000e+00    0.000000000e+00
      254000000   -4.218653962e-02   -4.278364591e-03    4.719538987e-01    6.001405120e-01    0.000000000e+00    0.000000000e+00    0.000000000e+00    0.000000000e+00
      268000000   -3.694236279e-02   -7.549652364e-03    6.881295443e-01    3.260923624e-01    0.000000000e+00    0.000000000e+00    0.000000000e+00    0.000000000e+00
      282000000   -3.511613235e-02   -9.585451335e-03    7.601889372e-01   -1.485362649e-02    0.000000000e+00    0.000000000e+00    0.000000000e+00    0.000000000e+00
      296000000   -3.253412247e-02   -9.553293698e-03    6.454569101e-01   -4.063690603e-01    0.000000000e+00    0.000000000e+00    0.000000000e+00    0.000000000e+00
      310000000   -2.909689024e-02   -1.322592422e-02    3.949412107e-01   -6.542037129e-01    0.000000000e+00    0.000000000e+00    0.000000000e+00    0.000000000e+00
      324000000   -2.764595114e-02   -2.127511986e-02    6.071841717e-02   -7.632293701e-01    0.000000000e+00    0.000000000e+00    0.000000000e+00    0.000000000e+00
      338000000   -3.382300586e-02   -2.873942256e-02   -2.880333066e-01   -7.117863894e-01    0.000000000e+00    0.000000000e+00    0.000000000e+00    0.000000000e+00
      352000000   -4.545287415e-02   -2.933894470e-02   -5.747426152e-01   -5.053343177e-01    0.000000000e+00    0.000000000e+00    0.000000000e+00    0.000000000e+00
      366000000   -5.404376984e-02   -2.033498511e-02   -7.402756810e-01   -1.905690730e-01    0.000000000e+00    0.000000000e+00    0.000000000e+00    0.000000000e+00
      380000000   -5.209151655e-02   -6.930174306e-03   -7.430760264e-01    1.646368057e-01    0.000000000e+00    0.000000000e+00    0.000000000e+00    0.000000000e+00
      394000000   -3.969597816e-02   -2.596229315e-04   -5.830073357e-01    4.786785543e-01    0.000000000e+00    0.000000000e+00    0.000000000e+00    0.000000000e+00
      408000000   -2.654148452e-02   -7.572861854e-03   -2.963648438e-01    6.835454702e-01    0.000000000e+00    0.000000000e+00    0.000000000e+00    0.000000000e+00
      422000000   -2.508435771e-02   -2.281860076e-02    4.337020218e-02    7.370859385e-01    0.000000000e+00    0.000000000e+00    0.000000000e+00    0.000000000e+00
      436000000   -3.945491835e-02   -3.178199753e-02    3.692924082e-01    6.368396282e-01    0.000000000e+00    0.000000000e+00    0.000000000e+00    0.000000000e+00
      450000000   -5.648066103e-02   -2.219967917e-02    6.160322428e-01    4.008530676e-01    0.000000000e+00    0.000000000e+00    0.000000000e+00    0.000000000e+00
      464000000   -5.728990585e-02    3.119772300e-03    7.277526855e-01    7.935626805e-02    0.000000000e+00    0.000000000e+00    0.000000000e+00    0.000000000e+00
      478000000   -3.038204834e-02    2.431730181e-02    6.773905158e-01   -2.540106475e-01    0.000000000e+00    0.000000000e+00    0.000000000e+00    0.000000000e+00
      492000000    1.226862613e-02    1.738523506e-02    4.854437709e-01   -5.177005529e-01    0.000000000e+00    0.000000000e+00    0.000000000e+00    0.000000000e+00
      506000000    4.452236369e-02   -2.258322015e-02    2.085462362e-01   -6.633981466e-01    0.000000000e+00    0.000000000e+00    0.000000000e+00    0.000000000e+00
      520000000    4.490521923e-02   -8.094322681e-02   -9.253869951e-02   -6.792391539e-01    0.000000000e+00    0.000000000e+00    0.000000000e+00    0.000000000e+00
      534000000    6.891815923e-03   -1.308102459e-01   -3.729160130e-01   -5.759543777e-01    0.000000000e+00    0.000000000e+00    0.000000000e+00    0.000000000e+00
      548000000   -5.463997275e-02   -1.487566829e-01   -5.899184942e-01   -3.617596030e-01    0.000000000e+00    0.000000000e+00    0.000000000e+00    0.000000000e+00
      562000000   -1.116087511e-01   -1.247093603e-01   -6.965233684e-01   -6.375908107e-02    0.000000000e+00    0.000000000e+00    0.000000000e+00    0.000000000e+00
      576000000   -1.365795583e-01   -7.480243593e-02   -6.527332664e-01    2.600892186e-01    0.000000000e+00    0.000000000e+00    0.000000000e+00    0.000000000e+00
      590000000   -1.216888130e-01   -3.101757541e-02   -4.651090503e-01    5.330220461e-01    0.000000000e+00    0.000000000e+00    0.000000000e+00    0.000000000e+00
      604000000   -8.815968782e-02   -1.726323739e-02   -1.711737067e-01    6.760312915e-01    0.000000000e+00    0.000000000e+00    0.000000000e+00    0.000000000e+00
      618000000   -6.613180041e-02   -3.390929103e-02    1.496222317e-01    6.740998626e-01    0.000000000e+00    0.000000000e+00    0.000000000e+00    0.000000000e+00
      632000000   -7.107730955e-02   -5.780364946e-02    4.319407046e-01    5.349018574e-01    0.000000000e+00    0.000000000e+00    0.000000000e+00    0.000000000e+00
      646000000   -9.559452534e-02   -6.557491422e-02    6.261004806e-01    2.872199118e-01    0.000000000e+00    0.000000000e+00    0.000000000e+00    0.000000000e+00
      660000000   -1.173595637e-01   -5.013412610e-02    6.912938952e-01   -2.544322796e-02    0.000000000e+00    0.000000000e+00    0.000000000e+00    0.000000000e+00
      674000000   -1.179187670e-01   -2.313881181e-02    6.055924892e-01   -3.374459743e-01    0.000000000e+00    0.000000000e+00    0.000000000e+00    0.000000000e+00
      688000000   -9.695194662e-02   -7.312036119e-03    3.844833374e-01   -5.734955072e-01    0.000000000e+00    0.000000000e+00    0.000000000e+00    0.000000000e+00
      702000000   -7.259967923e-02   -1.501098927e-02    8.800362051e-02   -6.742058992e-01    0.000000000e+00    0.000000000e+00    0.000000000e+00    0.000000000e+00
      716000000   -6.637164950e-02   -4.057394713e-02   -2.245607376e-01   -6.507627964e-01    0.000000000e+00    0.000000000e+00    0.000000000e+00    0.000000000e+00
      730000000   -8.321142197e-02   -6.313874573e-02   -4.929959774e-01   -4.884862900e-01    0.000000000e+00    0.000000000e+00    0.000000000e+00    0.000000000e+00
      744000000   -1.132167354e-01   -6.620590389e-02   -6.680681705e-01   -2.244567871e-01    0.000000000e+00    0.000000000e+00    0.000000000e+00    0.000000000e+00
      758000000   -1.373403221e-01   -4.713730514e-02   -7.100033760e-01    9.752652049e-02    0.000000000e+00    0.000000000e+00    0.000000000e+00    0.000000000e+00
      772000000   -1.414652169e-01   -1.897503063e-02   -6.010959148e-01    4.083123207e-01    0.000000000e+00    0.000000000e+00    0.000000000e+00    0.000000000e+00
      786000000   -1.282264292e-01    5.702829221e-04   -3.603743613e-01    6.358258128e-01    0.000000000e+00    0.000000000e+00    0.000000000e+00    0.000000000e+00
      800000000   -1.143972948e-01    4.148920998e-03   -4.474800825e-02    7.321805954e-01    0.000000000e+00    0.000000000e+00    0.000000000e+00    0.000000000e+00
      814000000   -1.109685153e-01    2.384963445e-03    2.826134264e-01    6.802476048e-01    0.000000000e+00    0.000000000e+00    0.000000000e+00    0.000000000e+00
      828000000   -1.142114103e-01    9.138141759e-03    5.566083193e-01    4.887654185e-01    0.000000000e+00    0.000000000e+00    0.000000000e+00    0.000000000e+00
      842000000   -1.087992862e-01    2.938778140e-02    7.145487666e-01    1.909925640e-01    0.000000000e+00    0.000000000e+00    0.000000000e+00    0.000000000e+00
      856000000   -8.000579476e-02    4.770822451e-02    7.148819566e-01   -1.448049396e-01    0.000000000e+00    0.000000000e+00    0.000000000e+00    0.000000000e+00
      870000000   -3.575956449e-02    4.189560562e-02    5.662459135e-01   -4.375730753e-01    0.000000000e+00    0.000000000e+00    0.000000000e+00    0.000000000e+00
      884000000   -4.357972066e-04    5.365823861e-03    2.351944596e-01   -5.995467901e-01    0.000000000e+00    0.000000000e+00    0.000000000e+00    0.000000000e+00
      898000000    3.482781351e-03   -6.125335023e-02   -3.564000130e-02   -6.292672753e-01    0.000000000e+00    0.000000000e+00    0.000000000e+00    0.000000000e+00
      912000000   -3.003589436e-02   -1.221470088e-01   -2.991282940e-01   -5.568639636e-01    0.000000000e+00    0.000000000e+00    0.000000000e+00    0.000000000e+00
      926000000   -9.727957845e-02   -1.528903395e-01   -5.181894898e-01   -3.801689744e-01    0.000000000e+00    0.000000000e+00    0.000000000e+00    0.000000000e+00
      940000000   -1.687511355e-01   -1.351223439e-01   -6.552705169e-01   -1.112698093e-01    0.000000000e+00    0.000000000e+00    0.000000000e+00    0.000000000e+00
      954000000   -2.056575865e-01   -7.661411166e-02   -6.538648009e-01    2.140761316e-01    0.000000000e+00    0.000000000e+00    0.000000000e+00    0.000000000e+00
      968000000   -1.895338893e-01   -1.658123732e-02   -4.891304672e-01    5.076381564e-01    0.000000000e+00    0.000000000e+00    0.000000000e+00    0.000000000e+00
      982000000   -1.398834735e-01    1.871876535e-03   -2.029821128e-01    6.800643206e-01    0.000000000e+00    0.000000000e+00    0.000000000e+00    0.000000000e+00
      996000000   -1.017602459e-01   -2.704606950e-02    1.160222590e-01    7.009094357e-01    0.000000000e+00    0.000000000e+00    0.000000000e+00    0.000000000e+00
     1010000000   -1.040823534e-01   -7.467339933e-02    4.005295932e-01    5.869889259e-01    0.000000000e+00    0.000000000e+00    0.000000000e+00    0.000000000e+00
     1024000000   -1.446332633e-01   -1.055354849e-01    6.170850396e-01    3.736259043e-01    0.000000000e+00    0.000000000e+00    0.000000000e+00    0.000000000e+00
     1038000000   -1.982999295e-01   -9.572265297e-02    7.346632481e-01    7.651872188e-02    0.000000000e+00    0.000000000e+00    0.000000000e+00    0.000000000e+00
     1052000000   -2.266399264e-01   -4.829206318e-02    7.042589784e-01   -2.529225945e-01    0.000000000e+00    0.000000000e+00    0.000000000e+00    0.000000000e+00
     1066000000   -2.098528594e-01    1.429939643e-03    5.181535482e-01   -5.342613459e-01    0.000000000e+00    0.000000000e+00    0.000000000e+00    0.000000000e+00
     1080000000   -1.637798697e-01    1.536990423e-02    2.179805487e-01   -6.837196946e-01    0.000000000e+00    0.000000000e+00    0.000000000e+00    0.000000000e+00
     1094000000   -1.296247840e-01   -1.424589381e-02   -1.018936634e-01   -6.758692265e-01    0.000000000e+00    0.000000000e+00    0.000000000e+00    0.000000000e+00
     1108000000   -1.314632893e-01   -6.385103613e-02   -3.710009754e-01   -5.427900553e-01    0.000000000e+00    0.000000000e+00    0.000000000e+00    0.000000000e+00
     1122000000   -1.730976850e-01   -9.732827544e-02   -5.659994483e-01   -3.097606301e-01    0.000000000e+00    0.000000000e+00    0.000000000e+00    0.000000000e+00
     1136000000   -2.343513817e-01   -9.516324103e-02   -6.516326070e-01   -1.015140209e-02    0.000000000e+00    0.000000000e+00    0.000000000e+00    0.000000000e+00
     1150000000   -2.812420428e-01   -4.864282534e-02   -5.941986442e-01    3.108442128e-01    0.000000000e+00    0.000000000e+00    0.000000000e+00    0.000000000e+00
     1164000000   -2.886175811e-01    1.887932047e-02   -3.841405511e-01    5.790576339e-01    0.000000000e+00    0.000000000e+00    0.000000000e+00    0.000000000e+00
     1178000000   -2.581720054e-01    6.886256486e-02   -6.375072151e-02    7.118090391e-01    0.000000000e+00    0.000000000e+00    0.000000000e+00    0.000000000e+00
     1192000000   -2.128996253e-01    8.306885511e-02    2.782700956e-01    6.821216345e-01    0.000000000e+00    0.000000000e+00    0.000000000e+00    0.000000000e+00
     1206000000   -1.841089875e-01    7.437653095e-02    5.658019781e-01    5.009909868e-01    0.000000000e+00    0.000000000e+00    0.000000000e+00    0.000000000e+00
     1220000000   -1.724919677e-01    6.550075859e-02    7.414913177e-01    2.061393857e-01    0.000000000e+00    0.000000000e+00    0.000000000e+00    0.000000000e+00
     1234000000   -1.663288474e-01    6.712344289e-02    7.634820938e-01   -1.367066056e-01    0.000000000e+00    0.000000000e+00    0.000000000e+00    0.000000000e+00
     1248000000   -1.522083730e-01    7.701150328e-02    6.212387085e-01   -4.567892253e-01    0.000000000e+00    0.000000000e+00    0.000000000e+00    0.000000000e+00
     1262000000   -1.200954542e-01    7.602050900e-02    3.390291035e-01   -6.666854620e-01    0.000000000e+00    0.000000000e+00    0.000000000e+00    0.000000000e+00
     1276000000   -9.350915253e-02    4.931087419e-02    4.428379238e-03   -7.275412679e-01    0.000000000e+00    0.000000000e+00    0.000000000e+00    0.000000000e+00
     1290000000   -8.657071739e-02    5.560440943e-03   -3.216064572e-01   -6.392264366e-01    0.000000000e+00    0.000000000e+00    0.000000000e+00    0.000000000e+00
     1304000000   -1.120852903e-01   -3.401945531e-02   -5.931858420e-01   -4.299486876e-01    0.000000000e+00    0.000000000e+00    0.000000000e+00    0.000000000e+00
     1318000000   -1.587209404e-01   -4.558694363e-02   -7.671680450e-01   -9.898074716e-02    0.000000000e+00    0.000000000e+00    0.000000000e+00    0.000000000e+00
     1332000000   -1.995491236e-01   -1.825381815e-02   -7.798840404e-01    2.957628071e-01    0.000000000e+00    0.000000000e+00    0.000000000e+00    0.000000000e+00
     1346000000   -2.077738792e-01    3.118832596e-02   -5.868603587e-01    6.705986261e-01    0.000000000e+00    0.000000000e+00    0.000000000e+00    0.000000000e+00
     1360000000   -1.769617647e-01    6.675986201e-02   -2.378679961e-01    9.166139960e-01    0.000000000e+00    0.000000000e+00    0.000000000e+00    0.000000000e+00
     1374000000   -1.357955635e-01    6.528931856e-02    1.766636372e-01    9.636325836e-01    0.000000000e+00    0.000000000e+00    0.000000000e+00    0.000000000e+00
     1388000000   -1.157561764e-01    3.396236897e-02    5.408263206e-01    8.440550566e-01    0.000000000e+00    0.000000000e+00    0.000000000e+00    0.000000000e+00
     1402000000   -1.320206374e-01    4.683303647e-03    8.267531395e-01    5.897003412e-01    0.000000000e+00    0.000000000e+00    0.000000000e+00    0.000000000e+00
     1416000000   -1.696503907e-01    3.328944556e-03    9.738021493e-01    2.213405818e-01    0.000000000e+00    0.000000000e+00    0.000000000e+00    0.000000000e+00
     1430000000   -1.981602311e-01    3.217304498e-02    9.452337027e-01   -1.797464341e-01    0.000000000e+00    0.000000000e+00    0.000000000e+00    0.000000000e+00
     1444000000   -1.845551133e-01    7.818494737e-02    7.051948905e-01   -5.275450349e-01    0.000000000e+00    0.000000000e+00    0.000000000e+00    0.000000000e+00
     1458000000   -1.982146502e-01    4.987904429e-02    2.033932805e-01   -7.039056420e-01    0.000000000e+00    0.000000000e+00    0.000000000e+00    0.000000000e+00
     1472000000   -1.351149231e-01    6.185378507e-02   -1.547919065e-01   -6.958614588e-01    0.000000000e+00    0.000000000e+00    0.000000000e+00    0.000000000e+00
     1486000000   -1.227684766e-01   -2.120976569e-04   -4.327548742e-01   -5.496159792e-01    0.000000000e+00    0.000000000e+00    0.000000000e+00    0.000000000e+00
     1500000000   -1.543503553e-01   -6.120894849e-02   -6.229498982e-01   -3.009419441e-01    0.000000000e+00    0.000000000e+00    0.000000000e+00    0.000000000e+00
