# Hz S DB R 50.000000
23400000.0	-21.090705371231238	1.2896391729543082	-42.696664838738215	0.3587675905308221	2.461962924525463	-0.6774039558652584	-45.299467563382755	-3.0556988232859856
26400000.0	-22.845750552063905	1.4256713577020659	-43.45132119248886	0.3145727177700737	-1.571003130129403	2.7138977566199807	-36.64664311342148	0.976451250875586
29200000.0	-26.139283013278334	1.6246412852538485	-41.11473383484914	0.21359122156349547	-2.218377396821759	2.5950949480441188	-34.305814181679374	0.7733783298364761
32100000.0	-30.883113685309745	1.9002955929444258	-42.68023077801257	0.13965950187237022	-4.509433401822474	2.144876281752544	-31.51629960070347	0.30821173130937773
35100000.0	-17.760035261787127	-2.8575417585573986	-43.801029283448244	-3.0406043577484447	-1.4532484124860567	3.045865957090557	-43.87551660289111	-3.082736693593822
37900000.0	-17.741874652208686	-2.5677666981492075	-43.69270422756183	-2.905844404364951	-1.4968221080596504	3.053444461686664	-44.0710296812524	-2.9756562937032234
40800000.0	-17.87989588192679	-2.2782599877744962	-42.87904727609552	-2.7996002463806917	-1.559878004773462	3.0523878232311983	-43.49888488026246	-2.862206305074621
43800000.0	-17.830586517523994	-2.014302277357182	-43.27453561523599	-2.790526486642178	16.90218264432209	0.6931954233648274	-33.2160413620347	1.2268963944070221
46600000.0	-17.849291934948535	-1.7552454034463705	-43.549010782067924	-2.5606623655092595	-0.6844140166948481	3.0756687178547013	-43.58861095111824	-2.5728139344155103
49500000.0	-17.833161058689168	-1.4162967256096624	-42.99734836567982	-2.415879934576324	-1.561182413782249	3.0787766412387354	-43.88835103172838	-2.4560859069818477
52500000.0	-15.990464151455503	-1.497039073173293	-43.06144510464673	-2.315255504399455	-1.6576247852673953	3.0661738560879592	-43.96648299640675	-2.293141552678787
55200000.0	-16.293160581375684	-1.3165869872391156	-43.17345682102432	-2.2085819743517505	-1.5975883004127203	3.0578348889912066	-43.92063489074209	-2.197755026786419
58200000.0	-19.502660024698958	-1.9484683216559933	-42.901806268967135	-1.98993629950545	-2.3593779988806207	-2.149677802484746	-42.9826431900264	-2.120945469661135
61200000.0	-17.088506177426794	-0.8871312179538782	-42.92319549539043	-1.9276753560495294	-1.7826661669847992	2.9483719509017248	-43.8084062817677	-1.947896759958366
63900000.0	-17.520937744528737	-0.7003861589323244	-42.81735630990019	-1.8081053040174084	-1.9604712722438897	2.8619113694334253	-43.80439687564455	-1.8553369355412892
66900000.0	-18.583236417003665	-0.3687298497679852	-42.610124049453084	-1.468697200761956	-2.6287833366687097	2.8330677831846236	-43.83889978976779	-1.5494214883581723
69900000.0	-18.558764664360623	-0.5616719116466786	-42.1238712058279	-1.5866967211780334	-2.3435070398366307	2.947472267470231	-43.156756273675015	-1.6707773220044555
72600000.0	-18.32891467539606	-0.10655018661660165	-42.72131104442458	-1.5132504478479247	-2.497950114244247	-2.3285170496951904	-43.889713858463956	-1.186933040849741
75600000.0	-18.424737269824977	-0.14989917222648538	-42.482886911646204	-1.443325129985148	-2.493268580788861	-2.1466251694198046	-43.689673294474986	-1.1555660253563094
78600000.0	-18.330678651947625	-0.1973701199217249	-41.31602929491579	-1.2700601783576808	-1.0812718552693472	-1.8313683292333807	-43.4180371303964	-1.0056733651568055
81300000.0	-17.929645689279333	-0.23066910772301738	-42.50777053433577	-1.1191018405956448	-2.1231422508447686	-1.6501913413906115	-43.37423804583926	-0.9501339343757118
84300000.0	-17.91284029092385	-0.18314283777616866	-42.21270150569795	-1.0297313201449796	-2.493638467396738	-1.502268017326436	-43.32330302929934	-0.8842479379417374
87300000.0	-18.18267177876645	-0.1319240460792472	-42.03721437295273	-0.8812875615063775	-2.334488808593102	-1.2515395702717154	-43.10019178871312	-0.7806648667051531
90000000.0	-18.413918414971672	-0.16323118951174834	-42.01553471111048	-0.7143884080438226	-2.124656451725571	-0.9903185108911996	-42.660205595851686	-0.6372004633002213
93000000.0	-18.380763053575684	-0.13205981530020053	-41.657300608403176	-0.6202927377118181	-2.1547262237418288	-0.7829293005121304	-42.767617102901305	-0.5622704064109557
96000000.0	-18.637888352292148	0.14684084381139795	-41.64861231845223	-0.5495503975128676	-1.5259281031251208	-0.8437863519834353	-42.57597860446431	-0.4360613888259894
98400000.0	-18.462595279375996	-0.19831207413108984	-41.44276062511658	-0.3158785656614889	-1.6507516651253202	-0.20153683551876453	-42.11924127742741	-0.3220280951844134
101400000.0	-18.477540413964537	-0.1783909630387595	-41.1273016796618	-0.2590853002964868	-1.5573016959378874	-0.046811403696670875	-42.09686261738913	-0.2825602666269383
104400000.0	-18.3028511725098	-0.2096889751216952	-41.13926312900926	-0.44636501103952797	-1.4549830773924324	0.3331152356032849	-41.63047416021452	-0.5247076331714421
107400000.0	-18.323619836791153	-0.21077211239661126	-29.410231348419977	-0.9017553669697189	-1.3078754401778026	0.557987294294679	-29.551494315858434	-0.8176380173516656
110400000.0	-18.43247897568325	-0.22128793974458352	-28.893413272831587	-0.8874595836457182	-1.1735210573272923	0.7864977929567423	-28.89042388815607	-0.8540764175074119
113400000.0	-18.274809972962785	-0.28567111493339475	-39.91211580190134	-0.2965449995171908	-1.3815037183118273	1.264057319180349	-40.050344508199814	-0.3517943286486372
115800000.0	-18.28526705503407	-0.22010885761540483	-40.96803010439736	0.15774246299125835	-1.0837813126592224	1.3278820764520765	-40.61714287324402	0.0888349754891046
118800000.0	-18.28334023691856	-0.16965718829631374	-40.738219308198595	0.07375795584331933	-1.1980492644463165	1.5880393482552728	-40.604830664820085	-0.024870238759755234
121800000.0	-18.671364923941677	-0.20815612213944934	-40.11282782931546	-0.043201768797155246	-1.356196369464766	1.919296894017891	-40.80755115590257	-0.15184841053965323
124800000.0	-19.481530040876446	-0.5984583596355596	-41.77146714154347	0.33039903822837496	-1.542829678668518	2.2004091767591243	-42.09816804440766	0.2654232274703764
127800000.0	-19.005590090029905	-0.640045378597166	-40.31171599963592	0.8111098354979814	-1.7101348161808811	2.377102681765982	-41.212819033882084	0.7128613479421873
130800000.0	-20.097307946999155	-0.09422099674814409	-40.64595461506133	1.2329990524050793	-3.27167230729696	-2.751034629458973	-41.33686423819378	1.4773108217564261
133200000.0	-20.095606304419714	0.06005155606398364	-39.909145785490594	1.3055989289204128	-3.014524305620663	-2.7245011804709587	-41.68640838158701	1.5424495363351598
136200000.0	-19.94441507804132	0.22694642783613606	-39.37312131448645	1.4759716259205482	-2.69263078532324	-2.815980652401082	-41.53176502797493	1.6631705746529493
139200000.0	-19.97562872132311	0.35729512225836063	-39.84730070783461	1.6502111760500167	-2.819086668137017	-2.8886065934003984	-41.21952319718403	1.8371571230828756
142200000.0	-20.114400435400583	0.5692737015219147	-40.20608349759332	1.6891658541501808	-1.9063422560152348	-2.87320262913132	-41.11525143219892	1.6369860047609084
145200000.0	-19.335728608222336	1.2212394758652347	-40.02608235179028	2.126105571525779	-1.7158968353790338	-2.9344378170088716	-40.93526030766447	2.110945116255758
148200000.0	-19.25802142204079	1.4914151862642626	-40.09952436242446	2.3386119329126323	-1.6050256940857588	-3.0251420963541364	-40.99290255210387	2.293668589767929
150600000.0	-19.479718115739175	1.6613312175261261	-40.112709870507395	2.4447028816000698	-2.558642417267091	-3.0249056339425593	-41.29348532143535	2.3514749824373293
153600000.0	-19.406144008202237	1.8773316498334678	-40.33618090966123	2.574965317253916	-1.793768975235588	-3.0323481027768455	-41.00512431095393	2.4469887317211407
156600000.0	-19.609878175790666	2.2923211108728454	-39.667259191221504	2.5604112795698515	-1.6117091981280929	-3.111044303452217	-41.07387354106532	2.6502993788356037
159600000.0	-19.61909736081416	2.5278198021525067	-39.89015321657144	2.6583628570474094	-1.5205924703454605	-3.1159319637947838	-40.872442162193835	2.7642774361278617
162600000.0	-20.31046567760162	2.890342454798618	-40.26883995730089	2.9331537149224336	-1.559906505886989	3.066989003982894	-40.73927898017872	2.9728624714114535
165600000.0	-19.3917585327169	-3.065680148751347	-40.16978491587836	3.046626777478074	-1.6523882532596943	3.096262489213375	-40.84732267479047	3.115801067696464
168000000.0	-16.199790614535853	-2.996883765977984	-40.42937715927593	-3.0828363946274875	-1.5442601599352845	-3.1076849648470697	-40.74882003606473	-3.067430585965036
171000000.0	-29.769348142343762	-0.5470856182858281	-39.08714318812845	-2.9598404570701633	-1.642789945810755	-3.080569684188939	-40.81413099531525	-2.960685033933274
174000000.0	-15.457023150922733	-2.6595366829501463	-40.56852417518941	-2.8413296771316707	-1.5151802331726407	-3.137900312370588	-40.72767531353658	-2.8258102243671637
177000000.0	-16.425334544702878	-2.3442438544946365	-39.233908117756926	-2.775696037121181	-1.511219198580056	3.091934269092926	-40.9028859817544	-2.7446857103517828
180000000.0	-16.838911013991346	-2.119308553788539	-39.26736952099747	-2.7549244565041193	-1.5906154800373415	3.0655114537104	-40.9117531779933	-2.6241397529363986
183000000.0	-17.283812316288092	-1.836321416546609	-40.0098786913589	-2.628075774790284	-1.541926112101509	3.0527205666312	-41.07067804612859	-2.4584339702900797
185400000.0	-17.448046424503726	-1.6131990550015967	-40.350334362218526	-2.482917775567027	-1.608521366463922	3.0412012656440104	-41.179499396729426	-2.320459204690685
188400000.0	-18.61236002540444	-1.088467444371405	-40.049556252664374	-2.404188895292232	-1.5186574248354145	3.053665468443485	-40.7435066256922	-2.286307891246175
190800000.0	-18.473558583256803	-0.8315516124391724	-40.364560286473164	-2.360506233931633	-1.4722603327128274	2.9861179177098376	-40.96754379262563	-2.134056217190763
194400000.0	-18.24215788582211	-0.5617743779123958	-40.135556940820265	-2.1441078385947363	-1.5651346344165162	2.896899912831726	-41.030950733096375	-2.0152022846688022
196800000.0	-17.91339670200284	-0.34133749332039814	-39.047937636484164	-1.9931457762393607	-1.7979376816804593	2.796605668672901	-40.9679676910166	-1.8731123467276616
200400000.0	-18.11238835460004	-0.3964726215169743	-40.231476255823765	-1.8199789977607677	-1.8168105430453712	2.8683944723996064	-40.757394131512456	-1.7887947650923544
202800000.0	-17.870681547779732	-0.3918374509866709	-40.25242791253347	-1.820107776547048	-1.7428403616046764	2.8490174666221986	-40.9796204559354	-1.7403746574996573
205200000.0	-19.518527016234778	-0.0025532650254264685	-40.10038718419614	-1.5298640107481765	-2.926132730592716	-2.380278263616606	-41.60172925755794	-1.3734486789210063
208800000.0	-17.933891066515795	-0.4420042102303062	-38.382899562381716	-1.688072849921761	-3.09630473731707	-2.1458284344679215	-41.32338675588639	-1.3296200285650506
211200000.0	-18.16298770216295	-0.4315369496357613	-38.53684602206294	-1.6879635609002643	-3.3176970298886443	-2.1006476455257492	-41.741596367868404	-1.3030131232859996
214800000.0	-18.01094227698444	-0.5302363651031133	-39.25764856803889	-1.3658664019605826	-2.7571540713196523	-1.750885190204642	-41.782853545415335	-1.1196183176778975
217200000.0	-22.13625940600013	-0.33802867494995903	-40.205780031860826	-1.1177460745825523	-2.92444700334943	-1.5152517379417072	-41.32427843532955	-1.050692447356396
219600000.0	-22.120394388748732	-0.2996567420622612	-39.89742640471212	-1.1969553572990843	-1.01797228770805	-1.0210373176291672	-39.752414155775924	-0.9417306467029883
223200000.0	-22.83470359818851	-0.4972989504509609	-38.80652998555407	-1.0028593054978	-1.557573593058812	-0.6426402203462934	-39.77197778344963	-0.8256174014760814
225600000.0	-22.678567472273894	-0.4311067981869057	-39.019679646904464	-0.9966521870908093	-2.5133869121800005	-0.9577462097133442	-40.94888640916083	-0.9908670282408027
229200000.0	-22.493798252458255	-0.764508776866025	-38.76571227958096	-0.9032887763071479	-2.186193427642086	-0.6010183630659708	-40.471880278231644	-0.8696529333058162
231600000.0	-23.00684283028387	-0.7243003859312371	-38.56916100843951	-0.9029413869694854	-2.394031825688661	-0.5690239670714815	-40.70809016912111	-0.9104123552045831
235200000.0	-16.826330686144505	-0.562948741553024	-39.87066820352977	-0.43528993491102114	-1.9528032066537686	0.001687278205871444	-39.8540341285165	-0.4472752063788624
237600000.0	-16.793922978981332	-0.497575066330624	-39.86012015842776	-0.4460561765417001	-2.0240157879613463	-0.03928826040947879	-40.13570399383505	-0.5147581634921682
240000000.0	-8.202855432256637	-0.5087029269648041	-42.02439649313995	-0.21870776387014015	-1.9917963536061059	0.2764234980918747	-39.804219406000826	-0.29844378834877533
243600000.0	-15.698274847162107	-0.5647029177984624	-40.12490310296762	-0.14874908818346513	-1.6547879690311262	0.5956348047993817	-39.573011380327465	-0.14868958626403656
246000000.0	-10.926997091726218	0.7777096995442668	-5.355778296286972	0.1672123187045793	0.37506805451703207	2.1489843489723257	-11.344261657476743	1.7995760708508326
249600000.0	-16.868919341929512	-0.9050729969914886	-38.3727577649633	0.34451259699354614	-2.3139232096866196	1.9827661836874049	-39.64037706716337	0.14712973139882451
252000000.0	-16.096622552253606	-0.555038793817747	-38.26208598769735	0.21049403747109702	-1.0509628837161644	1.4863869587881031	-38.96647681695394	0.21894156644550772
254400000.0	-16.867101054340328	-0.5231594949069281	-36.855346274501706	0.4380352435953512	-1.4122284437143293	1.879811307636756	-39.16494795483095	0.43393909465386493
258000000.0	-17.986211993915802	1.2510493489182177	-37.98368785586526	0.5416297272513909	-1.4748838122558263	-0.20968922030612971	-39.783077979342195	0.7126894880955613
260400000.0	-11.700029389600811	-0.3058394544187545	-36.00085131034553	0.4480091481887096	-1.6304904992409417	2.2578525622253762	-39.171560402498656	0.6227791480400707
264000000.0	-18.150194430111636	-0.37324026732009125	-38.2936698331855	0.8482218992011692	-4.240297330773242	-2.6462655761343163	-40.221157942246464	1.2387051033282275
266400000.0	-19.244562268889712	-0.4575001145626688	-37.87389565762042	1.149194166925665	-3.341149657964993	-2.80261548790079	-39.71772225757536	1.3567091593452427
270000000.0	-19.00422110045429	-0.41794027750716556	-38.88256666777884	1.1508810349528493	-3.386783026713815	-2.782516505104865	-39.80934446595849	1.3656975665559574
272400000.0	-18.769364584730003	-0.18424358960179707	-38.96531717792287	1.3989100955565092	-2.670746995937337	-2.9568588936106734	-39.24248169016861	1.509526176945297
274800000.0	-20.265478521288095	0.6418125052327059	-38.97493702093098	1.542043463882125	-2.311859541238945	-3.1148622213783392	-38.68672739567561	1.7217692479779259
278400000.0	-20.20600449325547	0.6571763870934173	-39.09024049852097	1.5465801597274063	-2.784717286289994	-3.0572978464818235	-38.75322222371469	1.748873719532178
280800000.0	-21.35944052456616	0.9832888869415987	-38.41006709983308	1.4227431434370026	-0.7195922111731311	3.1246740266358777	-46.204037649094126	1.4300686459412408
284400000.0	-21.878340574998454	0.9894403512909119	-38.52657591708433	1.4318298992423972	-1.7470476075669192	-3.0608847008885807	-39.62689648860825	1.34780141276803
286800000.0	-21.581847457058323	1.7353062637811438	-38.46749790777979	1.8562703191184946	-1.7655502641499394	-3.0964795134357845	-39.05364270843804	1.9356283678799404
289200000.0	-21.66808843057523	2.0790448492699474	-38.11870442242241	2.053478240072664	-1.7412215651903509	3.1243538935873785	-39.263652041798935	2.1494873982274085
292800000.0	-21.696884216408463	2.392727235673659	-38.42971056620452	2.276430154145106	-1.6225010347624234	3.062419646656301	-39.18538437986492	2.36986061666047
295200000.0	-21.714642970410317	2.473824042857143	-38.104393551862834	2.2953082030452365	-1.87425917141705	-3.1111058060956114	-39.182622666460574	2.4126932121616322
298800000.0	-20.75132728364511	2.8307179133183316	-38.18145112579677	2.5497661642397444	-1.581758717218515	3.1019462852699458	-38.646430125870296	2.594022673232669
301200000.0	-20.979301590807506	-3.1022594379471036	-38.17111925622913	2.9581636721391247	-1.7873279474671415	3.058126143450816	-39.26951641202122	2.783927758475843
304800000.0	-21.644080184189207	-2.7455471675467416	-38.9577352029655	2.9934657863381244	-1.7026091227354638	2.979179356336796	-39.24588789819306	3.0390619622735957
307200000.0	-21.755374604916483	-2.6600167776756116	-38.87981832269012	2.991636613220494	-1.8998582835116897	3.102427432942789	-38.86122654530747	3.0424943408713028
309600000.0	-21.436177339278434	-2.364601166038469	-38.71913012892288	-3.011575297144755	-1.7480483130466702	3.015019324098262	-39.152959840688844	-3.056840896415326
313200000.0	-20.632762281794534	-2.003157802838567	-36.7814113179533	-2.9400143519536637	-1.7029712328629085	2.940769538894774	-38.99427359766112	-2.975082930664905
315600000.0	-20.225216796730198	-1.9277254688675427	-36.00304396498122	-2.9149815181235583	-1.7236647615702803	3.069260314238222	-38.941959755303984	-2.922734872713089
319200000.0	-19.454229745815425	-1.5505133490760103	-35.631859563208714	-2.819275421643815	-1.378299390608101	2.9375467716871255	-38.27389659559	-2.6852459064836927
321600000.0	-19.16653971892463	-1.1321076181827867	-35.5939143112957	-2.900685561347714	-0.9054860059099421	2.7978205031035555	-38.33270875213758	-2.5966316767183755
324000000.0	-19.140449014355397	-1.067841811290958	-35.83321056423748	-2.931097062832707	4.5296002042021755	3.014268739182729	-35.370942004206924	-2.5530561117508417
327600000.0	-19.219368728361673	-1.0647328087305243	-34.73818952138283	-2.728296019994408	-0.9012879311299226	2.745494910815103	-38.854928906399195	-2.531223009772561
330000000.0	-16.827222129132934	-1.500984323135176	-35.93001195300865	-2.6061839165731358	-1.5961040716978685	2.8098597139278483	-39.21020588078082	-2.3236393957402655
333600000.0	-16.20750330973333	-1.4501499068085082	-34.90777570898655	-2.558347105040004	-1.6331798193721192	2.827119773766324	-39.401506900091725	-2.3414820852016414
336000000.0	-16.172237265885254	-1.2655524267204443	-34.989768479281864	-2.354065701789658	-1.9449324393118235	2.8779663598111833	-39.51832568855579	-2.1910355459221886
339600000.0	-15.508689586500788	-1.2442407402164943	-37.014506183237465	-2.2222388815209846	-3.101980464218921	-2.4351722533825	-40.317320835942134	-1.8253558191357437
342000000.0	-15.534610239250286	-1.2141603598890944	-36.91825889317229	-1.7689271099130532	-2.4317633500869156	-2.337255276465952	-40.0168228814291	-1.371191050479241
344400000.0	-15.66127765656458	-1.037862421128699	-37.15282417908131	-1.886745110247901	-2.876577712498282	-2.1335622699588233	-40.30391273785617	-1.5721177786624714
348000000.0	-15.19774711103754	-1.1772049806835465	-37.22833921879101	-1.893485351735998	-3.403358545395317	-1.9314651294693657	-40.29773443850956	-1.5394408866787819
350400000.0	-15.388236374248002	-1.2085035017674668	-36.81267921176676	-1.3665734166763934	-3.390523529943975	-1.6782028664986115	-40.401587630392164	-1.1205675172638854
354000000.0	-14.982754468883396	-0.5924693723540406	-24.345695152861584	-1.0906740812158255	5.944389261806319	-1.851201376687548	-28.677843773324042	-1.9407189899202364
356400000.0	14.397331866381528	-2.5039305308427915	-26.38314217855024	-2.319984774265861	-0.5482571051132892	-0.8727323681273765	-36.87913755841548	-1.2470923969809071
358800000.0	-14.861517536799155	-0.5907212103926632	-37.794118569535854	-1.0270078314932094	-2.013046038690308	-0.4276592550244364	-38.25626248849508	-0.9295747779384357
362400000.0	-21.105278157644157	-0.583794524057418	-37.80864448595403	-0.9791788097106706	-3.168280894928301	-0.6543909395242856	-39.32028347168787	-1.056256936583467
364800000.0	-17.46942322645817	-0.8486548712805405	-38.014706983470255	-0.5910867158109067	-2.945629222498423	-0.3563340919205632	-38.932065448192304	-0.9041398471818194
