# Hz S DB R 50.000000
23400000.0	-41.03992519316233	-177.90374110664914	-1.1438842682319692	-0.9761888763696915	-31.943680565455725	152.2047746634346	-1.7867100137291207	11.616460919656971
28300000.0	-55.60562872577073	-60.37168833516443	-1.0028765292736201	-0.9616805417308254	-59.133603632392145	33.19695018868729	-1.4193580039275129	0.8569930155994849
33300000.0	-63.27201377416724	-66.39476354388295	-1.0076139098140402	-0.20504524363477658	-79.22594869547983	-74.40795986980562	-1.1351193330020422	0.027609110529872263
38100000.0	-65.36043581905145	77.54403172056466	-0.9143030613726865	0.105758825697773	-66.55524842887937	-103.70590491272964	-1.2633927022434515	-1.045062930875073
43000000.0	-38.84586020235594	-169.62425181295	-1.1393112469724287	-0.34375403827821654	-34.560743044962464	-137.7155935004225	-0.8498520377377466	-0.12318669295838935
48000000.0	-34.913606597259	-140.9403422313485	-1.0325001487539351	-0.3666353636240484	-36.35771781494658	-135.40531624498394	-1.0989810089522387	-2.5566213274281586
52800000.0	-25.796384419877967	47.435618184970124	-1.1260669815927473	-0.41180675498730496	-52.78902530921015	130.58210150048302	-1.1677035275239138	-1.1591062124249758
57600000.0	-54.669754629469615	-165.10733807037667	-1.0624478160492188	-2.1930816453935957	-56.551294211112065	-28.95233622460735	-1.1143467198433081	-2.022933742468692
62700000.0	-66.44384362165972	-57.19474261286336	-1.1217377551654082	0.17878310918207446	-56.58409344049912	-12.251206253172882	-1.1012903673349246	-0.14175102232701792
67500000.0	-55.24685247835936	-140.3363239154862	-1.02050386880583	-0.09190695763915425	-50.070722643465196	-45.56814088936492	-1.083737908065783	0.028092669804732406
72300000.0	-24.974918407620173	103.71240439134789	-2.2994181320889524	51.3045635848563	-37.071863034178136	-12.782145489138987	-1.1938938920548265	0.8959468675987992
77400000.0	-49.585263366308226	104.3093198951689	-1.2331018837811198	0.5960906103371124	-52.64394409938554	-37.16583047509927	-1.1928217146464017	0.7565394859867682
82200000.0	-49.88944497064098	-127.05810221757336	-1.0317837827503085	-0.3066246339219321	-55.88252813833794	-5.0218901936441105	-0.9584382341416503	-0.46539133625156426
87000000.0	-45.8788677475827	-5.522637216222622	-1.1356688379878592	2.087438053462056	-45.13509834799957	-43.360991461104206	-1.171942838057898	1.864772040764425
92100000.0	-52.06583370278465	12.067641827813285	-1.0686041390235925	1.392151536759042	-44.70057676367871	-26.418784499931288	-1.048676899318925	1.352261032176683
96600000.0	-36.63787661046135	0.16816835141618255	-1.1981050719539483	0.10017764750618711	-48.213447255327615	159.81497788335122	-0.9843672552064326	-0.10321491099475244
101400000.0	-36.64822648056288	15.651760599941134	-0.9345405414357915	-1.0298061784243395	-41.04091768665418	59.24728356800489	-0.8782667277209277	-0.5845888687601017
106800000.0	-41.14831896248428	59.14691341544509	-1.0986085803577192	-1.5080579899138855	-48.82778548469575	103.98443874326615	-1.0444240132479052	-1.8526477987088292
111600000.0	-49.75091282631616	-140.84236617206315	-1.0991842381930454	-3.210084898633562	-47.74567138340048	16.371953485742015	-1.1538403482614972	-3.2602770849444678
116400000.0	-47.80490854097878	118.43177817424366	-1.0349396963075592	2.0977239938589545	-49.6609188124814	-38.02772231761734	-1.303548787917244	2.181642455238561
121200000.0	-41.73506082345667	-142.26150096826635	-1.0976394668178997	2.277018914169102	-48.30413701749614	120.24069312355843	-1.2403871220814406	1.6844844063800546
126000000.0	-54.26555396938723	155.5865086020508	-1.0996352829448564	2.2952246539368915	-48.96839136774986	177.03177400274518	-0.9439591902759458	1.0336160735707087
130800000.0	-49.18921297476462	-129.82749605192225	-1.0115537133109118	0.6555950209726263	-55.34783302959798	-161.9250023498302	-0.993005158755004	-0.2504995783491208
136200000.0	-47.07318946222986	-21.59529583181891	-1.0093801073036057	-0.3912227320647205	-27.95759243058069	101.13268046919221	-1.150989502914994	0.6871023806800255
141000000.0	-44.84848831668095	-62.01807616466688	-1.1597537922982946	-1.1294468198122192	-42.98038374038373	34.167851234114686	-1.2096614021564958	-1.1671321655950773
145800000.0	-46.20985763427039	-88.03322643051351	-1.0592337258116438	2.716670850494017	-45.64914924482619	-10.914868605499565	-1.0621900464908665	2.1134573750311016
150600000.0	-53.03987253640935	-133.18806261976837	-1.0624912178229438	3.3926879143640285	-28.888942667632577	-20.14836537433177	-1.0140773475639528	1.1239461548919796
155400000.0	-24.788655817557384	137.35556285844626	-1.1772929890106043	-112.8697273638895	-31.33148746978893	-162.40149670902966	-0.9966177606279736	0.36240972858417686
160200000.0	-34.61304346257597	-163.14484464755867	-0.9707338757540431	6.665060453079581	-42.18496329336758	146.17595916461997	-0.9804853696160448	6.405590535439116
165600000.0	-44.27408216297772	-170.89498332791513	-1.0579512962689672	-0.33557065330157043	-46.444488115701496	97.24668491386447	-1.1403814643442325	-0.6838663831097728
170400000.0	-37.834070118224034	175.8419038983358	-0.9381360357178413	4.137299760353206	-41.39761082838562	173.31842574249757	-1.0345634932176004	3.5214677095041393
175200000.0	-44.16583402990807	-136.66821256768685	-1.1471385225046649	-123.19104740606758	-24.951245632320482	-121.71777687140307	-1.136903584789293	2.9891930966667895
180000000.0	-19.761094682649414	-133.9408936082796	-0.4741666807953492	-174.8420695658504	-22.341627716348317	-130.48529330742178	-1.15315599274082	6.2934692355409805
184800000.0	-46.65492121254546	-102.09212196490653	-1.0948914373582772	7.592924233356625	-44.63979177420667	-165.71614913772805	-1.1882242982044342	6.576837917032309
189600000.0	-34.74951951719283	-136.98985560070682	-1.197837993884142	-0.2568396498568465	-42.038627541519276	-94.47953866488525	-1.004554524929727	-0.673320461370323
194400000.0	-37.042993559057436	-130.80283874945127	-1.182842433172879	0.313934276836618	-43.3616664606637	115.50996753497938	-1.0700665449678488	0.15263696733083684
199200000.0	-20.934126622062003	-97.7892217176378	-1.0475259576033604	-0.9210297471826586	-19.98269591850305	-69.75870606447964	-1.2608946453683783	0.2355126476567732
204000000.0	-40.97874488970017	66.63129396940433	-1.1286031668642753	-1.3355682335384427	-41.3825900565155	79.06202303088345	-1.118309686446563	-1.6757611741000311
208800000.0	-53.0988662318543	8.693104607217627	-0.9974471406386034	-2.300648112044512	-39.802472210521785	147.67020208001284	-0.9576040371495543	-3.3995617445898834
213600000.0	-32.42926410099143	-13.91457415448688	-1.0579146843261136	-4.346905383792405	-33.16090314661461	163.3053356291732	-0.8389998059541945	-3.438498121596887
218400000.0	-34.58231844515649	146.18757411074162	-0.9950213535456371	-3.8360410910407996	-37.550969760561955	123.99930410633219	-0.9780938228713716	-4.7594205060915655
224400000.0	-37.00443635682477	47.426952261971984	-0.9956411891151948	-5.596738699797056	-32.66255949706636	138.00720139671446	-1.026302063800069	-4.935995574801301
229200000.0	-40.19177527083564	130.17404558514554	-1.1978458700013328	-8.015220970866379	-33.99377146321064	84.86464977183904	-1.0151305513032873	-6.860883998965421
234000000.0	-39.21627107965379	128.9397553225313	-1.0383290205879088	4.814037404784568	-35.28392896088093	145.54684966971078	-0.9598200090018165	4.858824128942352
238800000.0	-37.8584029942549	-40.09999410349123	-1.167187266997825	3.620657633009726	-39.00536197733202	14.69614334378889	-1.033522729395864	2.544019887755508
243600000.0	-36.39416816491953	-10.212273749693257	-1.0320072102702724	3.6982560635402884	-42.50755328225098	96.65887076830458	-0.8133165693908637	2.266707704094134
248400000.0	-34.459762682893015	56.938196974168164	-1.883087159368419	-79.32526323184435	-28.88005171822275	92.81124447956398	-0.7860931057742235	7.0944273709806245
253200000.0	-46.21788966128576	124.56614841346084	-0.9065042472565461	14.08035216934173	-43.071027751754684	118.45508567737414	-0.907027167808726	12.269643898427644
258000000.0	-38.303091927622575	177.70848892006308	-1.1010027647472156	-0.9116050490441177	-36.537732184015475	29.59115810702536	-1.1592545482957082	0.5084032381848199
262800000.0	-42.08613261322759	-106.6978922626834	-1.2601967226924604	-1.6524213076683116	-34.83162956691916	3.374679660505564	-1.1340808060245937	-1.207888333645564
267600000.0	-43.85291882328751	-80.91002560693923	-1.2185225007683669	-0.6967172814702822	-21.287923037192243	122.72381119645951	-1.2897382555649672	-0.6516433271347576
272400000.0	-24.014681158730813	115.44716785963573	-1.0805594109792442	-0.8573805875960888	-21.90528738278589	132.48537646683027	-1.1813165287819807	-2.069078275026825
277200000.0	-37.94165533048084	-167.99143929607777	-1.690136995861142	-139.91780178074856	-21.95719854880801	69.61144461879127	-1.1008618881835888	-0.09847996192834625
283200000.0	-28.098375128620056	115.97698137140146	-1.5762666573231034	54.39474604840552	-23.358401914160076	-44.67684384949038	-0.9649270388064202	0.6700735897452498
288000000.0	-34.4974892126553	62.251406070697875	-1.0842881344354645	5.638280137738698	-35.20982191101978	57.40761768194306	-0.9940451620831471	6.125242206992859
292800000.0	-37.751552434732325	83.09476795816498	-1.1226275063879452	7.175380534630432	-31.511120162475738	58.705566056136114	1.00140568602906	-3.233877241121516
297600000.0	-35.08025809822022	94.35650533927547	-1.3669643769885735	4.994423731232424	-35.99173005883984	94.48862267788193	-1.0669454404175192	6.520217637394228
302400000.0	-41.87712404831334	155.55462989052404	-1.075855182430871	4.9054496850976905	-34.751155128586646	173.01053371630033	-1.0791399061899138	4.635616282544902
307200000.0	-34.18825134928016	176.1671324318589	-1.026859352880569	5.272452188823757	-32.38109953279854	136.57417350827077	-0.9268394919572807	4.364207504536318
312000000.0	-32.24544777356903	-129.37670383338605	-0.8658072807841732	2.047520361896959	-50.01680423362708	-62.27418225973681	-0.806243122162071	1.8594119400095295
316800000.0	-36.65193233783431	141.775088043451	-1.0515775480658323	1.8375324972879787	-38.424011200969204	88.29801739204318	-0.9288984737601326	2.4665082438317456
321600000.0	-19.49530714846528	56.955775238232825	-1.3422078898506486	0.9844255822819125	-36.67559004495141	30.78992744432345	-1.057132242675559	2.0998119558018895
326400000.0	-42.266279490685264	101.0463899209663	-1.2703677797373734	-0.3852588160511778	-37.960715412801044	84.31750851824054	-1.1429495378868844	0.19971574808447476
331200000.0	-32.81408194266845	-45.05103874662888	-1.1740172486549962	-0.8107798985342328	-49.9000991608212	76.78387588928447	-1.0741680738647184	-0.04379500541585963
336000000.0	-35.22800391001937	-81.3695655420633	-1.196668521846365	9.06186763362547	-38.801900825057245	-79.79172182938387	-1.1997385508545337	9.63171834763798
342000000.0	-31.415846760669183	-131.52240013700495	-1.1328565300007558	9.088525989107362	-27.303061501649854	-84.39627000634056	-0.8923982831047208	9.915160722343593
346800000.0	-32.574249788450544	-100.89638030718548	-1.0224288156241503	9.185736765487732	-34.88699206815711	109.92660012845586	-0.9488421844939985	9.345372976323835
351600000.0	-30.028319304888797	-68.74336408488637	-1.0361032893283233	7.900106918414253	-35.003171171005775	85.70871019552517	-0.9574969131516621	7.842347815483016
356400000.0	-31.752566985752484	7.249325778193973	-1.159563059785777	7.7047453678219275	-32.81333919243605	146.7484137288221	-1.0037560581563567	10.230686704307418
361200000.0	-34.21418058618778	157.48125226024808	-1.1289067810513354	4.701110820057577	-22.81232956515278	-33.023606321192915	-1.359372918307503	7.126996846659064
366000000.0	-19.187309302353064	-9.789982026127616	-1.036843283595084	4.489426199716594	-19.986583195405125	-152.78383580555675	-1.16355007437685	6.517937027430362
370800000.0	-9.811649465984392	40.20378690703799	-8.981196706507358	61.63063281324393	-11.029677898806243	76.97589792921131	-1.052609477865335	9.230817645178911
374400000.0	-34.30767898434047	44.73329710909567	-1.1042922035103184	2.043254486272888	-39.02022430984103	105.94661737073491	-0.9548282826763511	2.2234341293065905
379200000.0	-23.313807977329972	41.44398414769499	-1.2420179626272942	1.5833269307683817	-40.45574250874762	-88.92718860733633	-0.754591925913102	2.6607403595190147
384000000.0	-39.90615501109009	100.78954086976219	-1.110263111747666	1.4939556667600988	-40.41862723076591	-92.07725570733588	-0.9061477793893837	2.9815513439104917
388800000.0	-31.531619303222445	-34.38973964654958	-1.13522077781574	-97.44780637703846	-26.398163301455206	102.39825979193373	-1.13060841041004	-97.6018043809058
393600000.0	-28.320176788981822	-17.25311915394108	-1.0270411171752118	-117.68558672117705	-16.35932978762076	129.65594715047803	-1.278418566523213	-115.04108853175875
400800000.0	-51.136202988634324	141.4887360098049	-0.996752352779168	3.175338468858651	-29.477074842590454	133.27509221257685	-1.2147408437397227	1.843523809780946
405600000.0	-47.50554536045003	140.26920807337257	-1.0347386605618407	3.2587496238595235	-29.62439367576897	135.6348524230551	-1.113691262238622	1.5493261141867563
410400000.0	-42.45610537350471	104.8391463932402	-1.0981006847239723	-72.24145297140302	-17.605330326900727	157.08454379801117	-0.6490800819449725	-54.852316318435086
415200000.0	-25.873864024949636	167.51224254393242	0.5849644374138979	-46.3801224311629	-23.289823657953992	123.03016227032457	0.15044604474741907	-48.77836044947809
420000000.0	-37.28424034634536	90.12912303491142	-0.9555786731378406	-5.262072896968942	-19.589524123258734	151.838009596432	-0.8574685786943347	4.921588534292884
424800000.0	-19.105056174378067	95.7280285382299	-1.009467589125702	49.55899071410214	-19.485718145496783	178.55091920391106	-1.668441591483449	41.81065290273133
429600000.0	-22.400428117523575	179.26103787216599	-1.3928615325105678	46.84602872389779	-29.567638517312233	-171.1880709315918	-1.3885156090089952	44.88856993767194
434400000.0	-27.235352937295826	138.19999148356362	-0.9252877652428688	81.79836635629634	-23.369870102658528	174.38914933984194	-1.0377719047287146	50.98678042559998
439200000.0	-25.972389573376724	124.68885156529839	-0.9431315906470408	82.28375347265472	-31.0632412143498	-105.08647604500518	-1.310080468987829	88.19450502162283
444000000.0	-31.118471499965015	43.415100164887626	-0.9389779224969985	41.26567713966598	-31.62547583781167	154.85276338168276	-0.6693787013459239	45.1824839607366
448800000.0	-30.96857545195542	44.872581508396486	-0.8769373156808686	41.14461681247444	-30.729495242946893	152.96617366299537	-0.6912015634676659	45.19072969916706
453600000.0	-20.006068411150785	131.93735558320114	-1.453598761015986	43.42009744294953	-27.036678363453316	44.08722034282166	-0.7810430114757027	38.52898705801831
458400000.0	-23.426442916979525	93.59249206046444	-1.800122552759285	41.39185222615999	-27.72736462458266	48.986123274930755	-0.823128704502527	38.341255294723865
463200000.0	-23.125151396327837	94.68891230155849	-1.8262328743801262	40.68168090103573	-27.08336920186192	45.570680429812306	-0.8476369217055821	38.08482244429688
468000000.0	-22.181925128932075	96.3278218769933	-1.5545665276935658	42.35059054087824	-28.50384102282709	41.360291052565856	-0.7765049861868141	39.88808958929974
472800000.0	-31.279742009736164	-39.26507362401992	-1.0918082195914516	44.935348872606184	-27.860005863292713	60.95213787859443	-0.9636766312414152	42.93392243166655
477600000.0	-29.87181221267346	40.602975855748454	-0.9201971744227455	48.10297059281794	-35.35319043683519	103.9752642890941	-0.9996169428198838	48.45431401211204
482400000.0	-23.36371222319312	-109.89367671341142	-0.9976438038871209	48.53484422408042	-32.129327104462575	93.4738790019406	-0.9884076324144926	48.23090201342219
487200000.0	-22.92166203122994	-121.07819700173849	1.5033837133147747	55.492397360356456	-17.15551591155576	133.88689616288292	1.2548894658534604	65.45042524081997
492000000.0	-20.213664367096772	81.89902911539257	-0.8520143206726387	43.104834498555654	-22.56262858991387	2.5403622239299377	-1.186433099168394	48.02787069394059
496800000.0	-20.106323672504296	83.2600040181842	-1.0605180278433326	43.85911382870544	-22.730062050200242	129.0247421646511	-1.0614606888726688	47.45636652208916
501600000.0	-22.637943451280186	52.398729358259224	-0.8230458381987821	43.574615291275336	-23.42711861396264	64.93196341442464	-1.0793607733879713	4.416366409721523
506400000.0	-18.189493450428472	-44.15124971237668	-1.3275964572481815	-41.82090515156436	-17.681960619982167	-86.19620973494308	-0.765085723367178	-42.038786295154516
511200000.0	-11.997416841374806	18.26932651469112	-0.9910059859579877	37.840336106871696	-17.7246948066136	-116.31988674027805	5.144325076704548	-38.863301515430074
518400000.0	27.016784018160365	170.21171072680747	16.54238772517897	177.81101168552476	26.771954729925657	137.17482376192015	17.276415644022013	177.12625258259473
523200000.0	-39.217625260180746	-9.588341789066023	-0.7373867034555647	-33.113806236387596	-40.59429928981466	-132.5661335157592	-0.7398500494007476	-36.03016051185126
528000000.0	-15.983296047954095	-117.60174579893297	-0.5141565163538232	-34.71380071118621	-40.382135292521895	-140.56696295374311	-0.5990378920647733	-36.36826947442944
532800000.0	-18.287477606276813	-80.73359400419479	-1.3352310031736592	34.11725762291986	-28.010658539129587	-123.44914248412067	-0.9584855043607983	39.2649720816999
537600000.0	-17.86901875743788	-165.09828770337225	-3.0163884220163655	41.38620248903827	-29.15518265412841	-125.16812942138272	-0.9209202478549811	39.57145204883271
542400000.0	-32.102956404133266	-160.7147393477337	-1.3094623648907535	47.20466851252642	-24.268845916753534	9.914480749245316	-1.1134571418482	35.07455236862663
547200000.0	-0.5607376003173157	-67.497240784448	3.8272411745316064	-19.71746299735614	-20.608472254343976	-49.512569992575024	-1.5063505228400151	32.91613373107406
552000000.0	-25.786838250252448	-169.53389573435737	-0.8647733130570036	43.17235889503251	-21.98312888358899	-57.59560406171503	-0.7764999916436035	35.82901030707883
556800000.0	-27.218251337960695	-163.35490097346377	-0.8231145216793487	42.72769609641796	-16.7047071440821	-14.144633549667619	-0.7007156778175652	35.7516655823545
561600000.0	-30.213146899928148	175.03680277571152	0.1333074553641062	41.39485567298819	-17.532720321223653	2.977941062052556	-0.6032282953414798	37.808152290677725
566400000.0	-23.031759615184942	-21.730251433254086	-0.8726595909658591	94.0391682259096	-13.566676111581943	37.894516219551534	-0.7226677296210132	37.21874848043122
571200000.0	-23.190739369260726	-34.65069579259698	-0.7612239097269148	61.373016350756245	-22.2019918476037	76.49562607389525	-1.150361917288604	56.53409382492474
576000000.0	-22.746561347252555	-23.28368522317326	-0.6213223459101368	62.74957450613963	-21.955482359561604	78.9240264424928	-1.1960068551232266	56.67926867781556
580800000.0	-24.89163023486928	52.34655165613895	-0.7252297450363534	36.241834330738975	-26.642490920683915	143.78229968645516	-1.018176429275417	37.058472799089586
585600000.0	-22.253867835760875	57.90542593302049	-1.7400103649997123	76.47945993964396	-29.42765445935819	77.81160276375941	-1.3333884089756927	11.948740801211198
590400000.0	-21.110330137862732	134.07624708125127	-0.8672725740435451	15.561452821455704	-18.964660287778816	-174.92954644242906	-1.0749820778709136	23.774166007798755
595200000.0	-22.337067881550627	-172.4987332287048	-0.919679710250797	41.558989886209	-29.096202595912462	13.910971174314058	-1.1778976659924754	39.91150790985954
600000000.0	-23.610467042054797	-103.64632738158552	-1.224096081759403	43.53803016397469	-22.08901756424082	30.962301258010307	-1.111648772997502	42.05664479594997
604800000.0	-23.833854160273727	-107.52877132627165	-1.1274418083326416	43.84884292857831	-21.981997062964325	36.10207381283159	-1.1923228262884602	41.83883061796899
